T3BE0 000:008.674   SEGGER J-Link V6.84a Log File
T3BE0 000:008.778   DLL Compiled: Sep  7 2020 17:26:08
T3BE0 000:008.784   Logging started @ 2024-04-12 11:22
T3BE0 000:008.789 - 8.792ms
T3BE0 000:008.802 JLINK_SetWarnOutHandler(...)
T3BE0 000:008.809 - 0.009ms
T3BE0 000:008.816 JLINK_OpenEx(...)
T3BE0 000:010.422   Firmware: J-Link V9 compiled May  7 2021 16:26:12
T3BE0 000:010.668   Decompressing FW timestamp took 147 us
T3BE0 000:019.104   Hardware: V9.40
T3BE0 000:019.125   S/N: 69400877
T3BE0 000:019.133   OEM: SEGGER
T3BE0 000:019.141   Feature(s): RDI, GDB, FlashDL, FlashBP, JFlash
T3BE0 000:020.240   TELNET listener socket opened on port 19021
T3BE0 000:020.347   WEBSRV Starting webserver
T3BE0 000:020.528   WEBSRV Webserver running on local port 19080
T3BE0 000:020.539 - 11.725ms returns "O.K."
T3BE0 000:020.553 JLINK_GetEmuCaps()
T3BE0 000:020.582 - 0.031ms returns 0xB9FF7BBF
T3BE0 000:020.595 JLINK_TIF_GetAvailable(...)
T3BE0 000:020.764 - 0.175ms
T3BE0 000:020.776 JLINK_SetErrorOutHandler(...)
T3BE0 000:020.782 - 0.008ms
T3BE0 000:020.794 JLINK_ExecCommand("ProjectFile = "D:\project\stm32\F030\rs485_sht40\USER\JLinkSettings.ini"", ...). 
T3BE0 000:028.493   Ref file found at: D:\work\mdk\Keil_v5\ARM\Segger\JLinkDevices.ref
T3BE0 000:028.561   XML referenced by ref file: D:\MyDrivers\JLink\JLinkDevices.xml
T3BE0 000:029.129   D:\MyDrivers\JLink\JLinkDevices.xml evaluated successfully.
T3BE0 000:038.700 - 17.911ms returns 0x00
T3BE0 000:038.737 JLINK_ExecCommand("Device = STM32F030F4", ...). 
T3BE0 000:038.884   Device "STM32F030F4" selected.
T3BE0 000:039.117 - 0.377ms returns 0x00
T3BE0 000:039.135 JLINK_GetHardwareVersion()
T3BE0 000:039.141 - 0.008ms returns 94000
T3BE0 000:039.151 JLINK_GetDLLVersion()
T3BE0 000:039.156 - 0.008ms returns 68401
T3BE0 000:039.163 JLINK_GetOEMString(...)
T3BE0 000:039.170 JLINK_GetFirmwareString(...)
T3BE0 000:039.175 - 0.007ms
T3BE0 000:039.197 JLINK_GetDLLVersion()
T3BE0 000:039.203 - 0.008ms returns 68401
T3BE0 000:039.210 JLINK_GetCompileDateTime()
T3BE0 000:039.215 - 0.007ms
T3BE0 000:039.230 JLINK_GetFirmwareString(...)
T3BE0 000:039.235 - 0.008ms
T3BE0 000:039.246 JLINK_GetHardwareVersion()
T3BE0 000:039.252 - 0.008ms returns 94000
T3BE0 000:039.264 JLINK_GetSN()
T3BE0 000:039.270 - 0.008ms returns 69400877
T3BE0 000:039.281 JLINK_GetOEMString(...)
T3BE0 000:039.297 JLINK_TIF_Select(JLINKARM_TIF_SWD)
T3BE0 000:040.172 - 0.881ms returns 0x00
T3BE0 000:040.186 JLINK_HasError()
T3BE0 000:040.198 JLINK_SetSpeed(3000)
T3BE0 000:040.343 - 0.151ms
T3BE0 000:040.356 JLINK_GetId()
T3BE0 000:041.596   Found SW-DP with ID 0x0BB11477
T3BE0 000:056.579   Found SW-DP with ID 0x0BB11477
T3BE0 000:059.238   DPIDR: 0x0BB11477
T3BE0 000:059.256   Scanning AP map to find all available APs
T3BE0 000:059.831   AP[1]: Stopped AP scan as end of AP map has been reached
T3BE0 000:059.850   AP[0]: AHB-AP (IDR: 0x04770021)
T3BE0 000:059.862   Iterating through AP map to find AHB-AP to use
T3BE0 000:060.768   AP[0]: Core found
T3BE0 000:060.785   AP[0]: AHB-AP ROM base: 0xE00FF000
T3BE0 000:061.220   CPUID register: 0x410CC200. Implementer code: 0x41 (ARM)
T3BE0 000:061.236   Found Cortex-M0 r0p0, Little endian.
T3BE0 000:162.542   -- Max. mem block: 0x00010E60
T3BE0 000:162.643   CPU_ReadMem(4 bytes @ 0xE000EDF0)
T3BE0 000:163.706   CPU_ReadMem(4 bytes @ 0xE0002000)
T3BE0 000:164.543   FPUnit: 4 code (BP) slots and 0 literal slots
T3BE0 000:164.601   CPU_ReadMem(4 bytes @ 0xE000EDFC)
T3BE0 000:165.251   CPU_WriteMem(4 bytes @ 0xE000EDFC)
T3BE0 000:165.935   CPU_ReadMem(4 bytes @ 0xE0001000)
T3BE0 000:166.637   CPU_WriteMem(4 bytes @ 0xE0001000)
T3BE0 000:167.369   CoreSight components:
T3BE0 000:167.457   ROMTbl[0] @ E00FF000
T3BE0 000:167.498   CPU_ReadMem(64 bytes @ 0xE00FF000)
T3BE0 000:168.523   CPU_ReadMem(32 bytes @ 0xE000EFE0)
T3BE0 000:169.286   ROMTbl[0][0]: E000E000, CID: B105E00D, PID: 000BB008 SCS
T3BE0 000:169.298   CPU_ReadMem(32 bytes @ 0xE0001FE0)
T3BE0 000:170.045   ROMTbl[0][1]: E0001000, CID: B105E00D, PID: 000BB00A DWT
T3BE0 000:170.102   CPU_ReadMem(32 bytes @ 0xE0002FE0)
T3BE0 000:170.834   ROMTbl[0][2]: E0002000, CID: B105E00D, PID: 000BB00B FPB
T3BE0 000:171.118 - 130.767ms returns 0x0BB11477
T3BE0 000:171.134 JLINK_GetDLLVersion()
T3BE0 000:171.140 - 0.008ms returns 68401
T3BE0 000:171.147 JLINK_CORE_GetFound()
T3BE0 000:171.153 - 0.008ms returns 0x60000FF
T3BE0 000:171.163 JLINK_GetDebugInfo(0x100 = JLINKARM_ROM_TABLE_ADDR_INDEX)
T3BE0 000:171.170   Value=0xE00FF000
T3BE0 000:171.177 - 0.016ms returns 0
T3BE0 000:171.292 JLINK_GetDebugInfo(0x100 = JLINKARM_ROM_TABLE_ADDR_INDEX)
T3BE0 000:171.305   Value=0xE00FF000
T3BE0 000:171.316 - 0.027ms returns 0
T3BE0 000:171.326 JLINK_GetDebugInfo(0x101 = JLINKARM_DEBUG_INFO_ETM_ADDR_INDEX)
T3BE0 000:171.332   Value=0x00000000
T3BE0 000:171.339 - 0.016ms returns 0
T3BE0 000:171.347 JLINK_ReadMemEx(0xE0041FF0, 0x10 Bytes, Flags = 0x02000004)
T3BE0 000:171.370   CPU_ReadMem(16 bytes @ 0xE0041FF0)
T3BE0 000:171.918   Data:  00 00 00 00 00 00 00 00 00 00 00 00 00 00 00 00
T3BE0 000:171.929 - 0.584ms returns 16 (0x10)
T3BE0 000:171.937 JLINK_GetDebugInfo(0x102 = JLINKARM_DEBUG_INFO_MTB_ADDR_INDEX)
T3BE0 000:171.943   Value=0x00000000
T3BE0 000:171.951 - 0.016ms returns 0
T3BE0 000:171.958 JLINK_GetDebugInfo(0x103 = JLINKARM_DEBUG_INFO_TPIU_ADDR_INDEX)
T3BE0 000:171.963   Value=0x00000000
T3BE0 000:171.970 - 0.015ms returns 0
T3BE0 000:171.977 JLINK_ReadMemEx(0xE0040FF0, 0x10 Bytes, Flags = 0x02000004)
T3BE0 000:171.990   CPU_ReadMem(16 bytes @ 0xE0040FF0)
T3BE0 000:172.578   Data:  00 00 00 00 00 00 00 00 00 00 00 00 00 00 00 00
T3BE0 000:172.589 - 0.614ms returns 16 (0x10)
T3BE0 000:172.598 JLINK_GetDebugInfo(0x104 = JLINKARM_DEBUG_INFO_ITM_ADDR_INDEX)
T3BE0 000:172.604   Value=0xE0000000
T3BE0 000:172.611 - 0.016ms returns 0
T3BE0 000:172.618 JLINK_GetDebugInfo(0x105 = JLINKARM_DEBUG_INFO_DWT_ADDR_INDEX)
T3BE0 000:172.624   Value=0xE0001000
T3BE0 000:172.631 - 0.015ms returns 0
T3BE0 000:172.638 JLINK_GetDebugInfo(0x106 = JLINKARM_DEBUG_INFO_FPB_ADDR_INDEX)
T3BE0 000:172.644   Value=0xE0002000
T3BE0 000:172.651 - 0.015ms returns 0
T3BE0 000:172.658 JLINK_GetDebugInfo(0x107 = JLINKARM_DEBUG_INFO_NVIC_ADDR_INDEX)
T3BE0 000:172.664   Value=0xE000E000
T3BE0 000:172.671 - 0.015ms returns 0
T3BE0 000:172.678 JLINK_GetDebugInfo(0x10C = JLINKARM_DEBUG_INFO_DBG_ADDR_INDEX)
T3BE0 000:172.684   Value=0xE000EDF0
T3BE0 000:172.691 - 0.015ms returns 0
T3BE0 000:172.698 JLINK_GetDebugInfo(0x01 = Unknown)
T3BE0 000:172.706   Value=0x00000000
T3BE0 000:172.714 - 0.018ms returns 0
T3BE0 000:172.721 JLINK_ReadMemU32(0xE000ED00, 0x1 Items)
T3BE0 000:172.734   CPU_ReadMem(4 bytes @ 0xE000ED00)
T3BE0 000:173.244   Data:  00 C2 0C 41
T3BE0 000:173.255   Debug reg: CPUID
T3BE0 000:173.263 - 0.544ms returns 1 (0x1)
T3BE0 000:173.271 JLINK_GetDebugInfo(0x10F = JLINKARM_DEBUG_INFO_HAS_CORTEX_M_SECURITY_EXT_INDEX)
T3BE0 000:173.277   Value=0x00000000
T3BE0 000:173.285 - 0.016ms returns 0
T3BE0 000:173.292 JLINK_HasError()
T3BE0 000:173.299 JLINK_SetResetType(JLINKARM_CM3_RESET_TYPE_NORMAL)
T3BE0 000:173.305 - 0.008ms returns JLINKARM_CM3_RESET_TYPE_NORMAL
T3BE0 000:173.312 JLINK_Reset()
T3BE0 000:173.330   CPU is running
T3BE0 000:173.339   CPU_WriteMem(4 bytes @ 0xE000EDF0)
T3BE0 000:173.866   CPU is running
T3BE0 000:173.878   CPU_WriteMem(4 bytes @ 0xE000EDFC)
T3BE0 000:174.357   Reset: Halt core after reset via DEMCR.VC_CORERESET.
T3BE0 000:174.839   Reset: Reset device via AIRCR.SYSRESETREQ.
T3BE0 000:174.851   CPU is running
T3BE0 000:174.860   CPU_WriteMem(4 bytes @ 0xE000ED0C)
T3BE0 000:227.879   CPU_ReadMem(4 bytes @ 0xE000EDF0)
T3BE0 000:228.489   CPU_ReadMem(4 bytes @ 0xE000EDF0)
T3BE0 000:229.034   CPU is running
T3BE0 000:229.072   CPU_WriteMem(4 bytes @ 0xE000EDF0)
T3BE0 000:229.661   CPU is running
T3BE0 000:229.695   CPU_WriteMem(4 bytes @ 0xE000EDFC)
T3BE0 000:235.408   CPU_ReadMem(4 bytes @ 0xE000EDF0)
T3BE0 000:239.854   CPU_WriteMem(4 bytes @ 0xE0002000)
T3BE0 000:240.442   CPU_ReadMem(4 bytes @ 0xE000EDFC)
T3BE0 000:240.916   CPU_ReadMem(4 bytes @ 0xE0001000)
T3BE0 000:241.348   CPU_WriteMem(4 bytes @ 0xE0001000)
T3BE0 000:241.816 - 68.510ms
T3BE0 000:241.833 JLINK_HasError()
T3BE0 000:241.841 JLINK_ReadReg(R15 (PC))
T3BE0 000:241.853 - 0.015ms returns 0x080000CC
T3BE0 000:241.861 JLINK_ReadReg(XPSR)
T3BE0 000:241.871 - 0.013ms returns 0xC1000000
T3BE0 000:241.919 JLINK_Halt()
T3BE0 000:241.927 - 0.011ms returns 0x00
T3BE0 000:241.935 JLINK_ReadMemU32(0xE000EDF0, 0x1 Items)
T3BE0 000:241.950   CPU_ReadMem(4 bytes @ 0xE000EDF0)
T3BE0 000:242.391   Data:  03 00 03 00
T3BE0 000:242.402   Debug reg: DHCSR
T3BE0 000:242.410 - 0.478ms returns 1 (0x1)
T3BE0 000:242.422 JLINK_WriteU32_64(0xE000EDF0, 0xA05F0003)
T3BE0 000:242.428   Debug reg: DHCSR
T3BE0 000:242.450   CPU_WriteMem(4 bytes @ 0xE000EDF0)
T3BE0 000:242.899 - 0.483ms returns 0 (0x00000000)
T3BE0 000:242.911 JLINK_WriteU32_64(0xE000EDFC, 0x01000000)
T3BE0 000:242.917   Debug reg: DEMCR
T3BE0 000:242.933   CPU_WriteMem(4 bytes @ 0xE000EDFC)
T3BE0 000:243.375 - 0.470ms returns 0 (0x00000000)
T3BE0 000:243.425 JLINK_GetHWStatus(...)
T3BE0 000:243.636 - 0.216ms returns 0
T3BE0 000:243.667 JLINK_GetNumBPUnits(Type = 0xFFFFFF00)
T3BE0 000:243.673 - 0.009ms returns 0x04
T3BE0 000:243.681 JLINK_GetNumBPUnits(Type = 0xF0)
T3BE0 000:243.686 - 0.008ms returns 0x2000
T3BE0 000:243.693 JLINK_GetNumWPUnits()
T3BE0 000:243.698 - 0.007ms returns 2
T3BE0 000:243.717 JLINK_GetSpeed()
T3BE0 000:243.723 - 0.008ms returns 3000
T3BE0 000:243.737 JLINK_ReadMemU32(0xE000E004, 0x1 Items)
T3BE0 000:243.751   CPU_ReadMem(4 bytes @ 0xE000E004)
T3BE0 000:244.168   Data:  00 00 00 00
T3BE0 000:244.179 - 0.444ms returns 1 (0x1)
T3BE0 000:244.188 JLINK_HasError()
T3BE0 000:244.195 JLINK_ReadReg(R15 (PC))
T3BE0 000:244.207 - 0.014ms returns 0x080000CC
T3BE0 000:244.214 JLINK_ReadReg(XPSR)
T3BE0 000:244.225 - 0.013ms returns 0xC1000000
T3BE0 000:316.230 JLINK_HasError()
T3BE0 000:316.252 JLINK_SetResetType(JLINKARM_CM3_RESET_TYPE_NORMAL)
T3BE0 000:316.258 - 0.009ms returns JLINKARM_CM3_RESET_TYPE_NORMAL
T3BE0 000:316.266 JLINK_Reset()
T3BE0 000:316.284   CPU_WriteMem(4 bytes @ 0xE000EDF0)
T3BE0 000:316.681   CPU_WriteMem(4 bytes @ 0xE000EDFC)
T3BE0 000:317.103   Reset: Halt core after reset via DEMCR.VC_CORERESET.
T3BE0 000:317.594   Reset: Reset device via AIRCR.SYSRESETREQ.
T3BE0 000:317.607   CPU_WriteMem(4 bytes @ 0xE000ED0C)
T3BE0 000:370.817   CPU_ReadMem(4 bytes @ 0xE000EDF0)
T3BE0 000:371.660   CPU_ReadMem(4 bytes @ 0xE000EDF0)
T3BE0 000:372.147   CPU_WriteMem(4 bytes @ 0xE000EDF0)
T3BE0 000:372.682   CPU_WriteMem(4 bytes @ 0xE000EDFC)
T3BE0 000:378.225   CPU_ReadMem(4 bytes @ 0xE000EDF0)
T3BE0 000:382.513   CPU_WriteMem(4 bytes @ 0xE0002000)
T3BE0 000:382.977   CPU_ReadMem(4 bytes @ 0xE000EDFC)
T3BE0 000:383.479   CPU_ReadMem(4 bytes @ 0xE0001000)
T3BE0 000:384.012   CPU_WriteMem(4 bytes @ 0xE0001000)
T3BE0 000:384.455 - 68.195ms
T3BE0 000:384.488 JLINK_HasError()
T3BE0 000:384.497 JLINK_ReadReg(R15 (PC))
T3BE0 000:384.510 - 0.016ms returns 0x080000CC
T3BE0 000:384.519 JLINK_ReadReg(XPSR)
T3BE0 000:384.530 - 0.013ms returns 0xC1000000
T3BE0 000:384.868 JLINK_ReadMemEx(0x080000CC, 0x3C Bytes, Flags = 0x02000000)
T3BE0 000:384.885   CPU_ReadMem(128 bytes @ 0x080000C0)
T3BE0 000:386.404    -- Updating C cache (128 bytes @ 0x080000C0)
T3BE0 000:386.419    -- Read from C cache (60 bytes @ 0x080000CC)
T3BE0 000:386.428   Data:  0C 48 80 F3 08 88 0C 48 01 68 09 0E 0B 4A 91 42 ...
T3BE0 000:386.436 - 1.570ms returns 60 (0x3C)
T3BE0 000:386.445 JLINK_ReadMemEx(0x080000CC, 0x2 Bytes, Flags = 0x02000000)
T3BE0 000:386.451    -- Read from C cache (2 bytes @ 0x080000CC)
T3BE0 000:386.459   Data:  0C 48
T3BE0 000:386.467 - 0.024ms returns 2 (0x2)
T3BE0 000:386.532 JLINK_ReadMemEx(0x080000CE, 0x2 Bytes, Flags = 0x02000000)
T3BE0 000:386.539    -- Read from C cache (2 bytes @ 0x080000CE)
T3BE0 000:386.546   Data:  80 F3
T3BE0 000:386.554 - 0.024ms returns 2 (0x2)
T3BE0 002:134.316 JLINK_HasError()
T3BE0 002:134.333 JLINK_ReadReg(R0)
T3BE0 002:134.815 - 0.489ms returns 0xFFFFFFFF
T3BE0 002:134.830 JLINK_ReadReg(R1)
T3BE0 002:134.841 - 0.014ms returns 0xFFFFFFFF
T3BE0 002:134.848 JLINK_ReadReg(R2)
T3BE0 002:134.859 - 0.013ms returns 0xFFFFFFFF
T3BE0 002:134.866 JLINK_ReadReg(R3)
T3BE0 002:134.877 - 0.013ms returns 0xFFFFFFFF
T3BE0 002:134.884 JLINK_ReadReg(R4)
T3BE0 002:134.894 - 0.013ms returns 0xFFFFFFFF
T3BE0 002:134.902 JLINK_ReadReg(R5)
T3BE0 002:134.912 - 0.013ms returns 0xFFFFFFFF
T3BE0 002:134.919 JLINK_ReadReg(R6)
T3BE0 002:134.930 - 0.013ms returns 0xFFFFFFFF
T3BE0 002:134.937 JLINK_ReadReg(R7)
T3BE0 002:134.947 - 0.013ms returns 0xFFFFFFFF
T3BE0 002:134.955 JLINK_ReadReg(R8)
T3BE0 002:134.965 - 0.013ms returns 0xFFFFFFFF
T3BE0 002:134.972 JLINK_ReadReg(R9)
T3BE0 002:134.983 - 0.013ms returns 0xFFFFFFFF
T3BE0 002:134.990 JLINK_ReadReg(R10)
T3BE0 002:135.000 - 0.013ms returns 0xFFFFFFFF
T3BE0 002:135.008 JLINK_ReadReg(R11)
T3BE0 002:135.018 - 0.013ms returns 0xFFFFFFFF
T3BE0 002:135.025 JLINK_ReadReg(R12)
T3BE0 002:135.035 - 0.016ms returns 0xFFFFFFFF
T3BE0 002:135.046 JLINK_ReadReg(R13 (SP))
T3BE0 002:135.057 - 0.013ms returns 0x200005C8
T3BE0 002:135.064 JLINK_ReadReg(R14)
T3BE0 002:135.075 - 0.013ms returns 0xFFFFFFFF
T3BE0 002:135.082 JLINK_ReadReg(R15 (PC))
T3BE0 002:135.107 - 0.028ms returns 0x080000CC
T3BE0 002:135.115 JLINK_ReadReg(XPSR)
T3BE0 002:135.204 - 0.092ms returns 0xC1000000
T3BE0 002:135.212 JLINK_ReadReg(MSP)
T3BE0 002:135.222 - 0.013ms returns 0x200005C8
T3BE0 002:135.229 JLINK_ReadReg(PSP)
T3BE0 002:135.240 - 0.013ms returns 0xFFFFFFFC
T3BE0 002:135.247 JLINK_ReadReg(CFBP)
T3BE0 002:135.257 - 0.013ms returns 0x00000000
T3BE0 002:335.082 JLINK_ReadMemEx(0x20000004, 0x2 Bytes, Flags = 0x02000000)
T3BE0 002:335.115   CPU_ReadMem(64 bytes @ 0x20000000)
T3BE0 002:336.069    -- Updating C cache (64 bytes @ 0x20000000)
T3BE0 002:336.082    -- Read from C cache (2 bytes @ 0x20000004)
T3BE0 002:336.090   Data:  0D 78
T3BE0 002:336.099 - 1.019ms returns 2 (0x2)
T3BE0 002:336.221 JLINK_ReadMemEx(0x20000004, 0x2 Bytes, Flags = 0x02000000)
T3BE0 002:336.235    -- Read from C cache (2 bytes @ 0x20000004)
T3BE0 002:336.243   Data:  0D 78
T3BE0 002:336.251 - 0.033ms returns 2 (0x2)
T3BE0 002:336.274 JLINK_ReadMemEx(0x20000004, 0x2 Bytes, Flags = 0x02000000)
T3BE0 002:336.285    -- Read from C cache (2 bytes @ 0x20000004)
T3BE0 002:336.293   Data:  0D 78
T3BE0 002:336.301 - 0.030ms returns 2 (0x2)
T3BE0 002:396.243 JLINK_ReadMemEx(0x20000003, 0x1 Bytes, Flags = 0x02000000)
T3BE0 002:396.273    -- Read from C cache (1 bytes @ 0x20000003)
T3BE0 002:396.283   Data:  E0
T3BE0 002:396.294 - 0.054ms returns 1 (0x1)
T3BE0 002:396.350 JLINK_ReadMemEx(0x20000003, 0x1 Bytes, Flags = 0x02000000)
T3BE0 002:396.363    -- Read from C cache (1 bytes @ 0x20000003)
T3BE0 002:396.371   Data:  E0
T3BE0 002:396.379 - 0.031ms returns 1 (0x1)
T3BE0 002:396.401 JLINK_ReadMemEx(0x20000003, 0x1 Bytes, Flags = 0x02000000)
T3BE0 002:396.412    -- Read from C cache (1 bytes @ 0x20000003)
T3BE0 002:396.420   Data:  E0
T3BE0 002:396.428 - 0.030ms returns 1 (0x1)
T2B84 002:464.065 JLINK_ReadMemEx(0x080000CC, 0x2 Bytes, Flags = 0x02000000)
T2B84 002:464.088    -- Read from C cache (2 bytes @ 0x080000CC)
T2B84 002:464.097   Data:  0C 48
T2B84 002:464.106 - 0.043ms returns 2 (0x2)
T2B84 002:464.114 JLINK_HasError()
T2B84 002:464.124 JLINK_SetBPEx(Addr = 0x08001970, Type = 0xFFFFFFF2)
T2B84 002:464.138 - 0.017ms returns 0x00000001
T2B84 002:464.146 JLINK_HasError()
T2B84 002:464.153 JLINK_SetBPEx(Addr = 0x08001980, Type = 0xFFFFFFF2)
T2B84 002:464.164 - 0.014ms returns 0x00000002
T2B84 002:464.171 JLINK_HasError()
T2B84 002:464.178 JLINK_SetBPEx(Addr = 0x0800197C, Type = 0xFFFFFFF2)
T2B84 002:464.189 - 0.013ms returns 0x00000003
T2B84 002:464.197 JLINK_HasError()
T2B84 002:464.204 JLINK_HasError()
T2B84 002:464.211 JLINK_Go()
T2B84 002:464.255   CPU_WriteMem(4 bytes @ 0xE0002000)
T2B84 002:464.683   CPU_WriteMem(4 bytes @ 0xE0002000)
T2B84 002:465.087   CPU_WriteMem(4 bytes @ 0xE0002000)
T2B84 002:465.568   CPU_ReadMem(4 bytes @ 0xE0001000)
T2B84 002:465.939   CPU_WriteMem(4 bytes @ 0xE0001000)
T2B84 002:465.952   CPU_WriteMem(4 bytes @ 0xE0002008)
T2B84 002:465.961   CPU_WriteMem(4 bytes @ 0xE000200C)
T2B84 002:465.970   CPU_WriteMem(4 bytes @ 0xE0002010)
T2B84 002:465.978   CPU_WriteMem(4 bytes @ 0xE0002014)
T2B84 002:467.369   CPU_WriteMem(4 bytes @ 0xE0001004)
T2B84 002:468.272 - 4.068ms
T2B84 002:568.873 JLINK_HasError()
T2B84 002:568.896 JLINK_IsHalted()
T2B84 002:572.415 - 3.528ms returns TRUE
T2B84 002:572.432 JLINK_HasError()
T2B84 002:572.440 JLINK_Halt()
T2B84 002:572.446 - 0.008ms returns 0x00
T2B84 002:572.453 JLINK_IsHalted()
T2B84 002:572.459 - 0.008ms returns TRUE
T2B84 002:572.466 JLINK_IsHalted()
T2B84 002:572.472 - 0.008ms returns TRUE
T2B84 002:572.479 JLINK_IsHalted()
T2B84 002:572.484 - 0.008ms returns TRUE
T2B84 002:572.492 JLINK_HasError()
T2B84 002:572.500 JLINK_ReadReg(R15 (PC))
T2B84 002:572.512 - 0.016ms returns 0x08001970
T2B84 002:572.520 JLINK_ReadReg(XPSR)
T2B84 002:572.531 - 0.013ms returns 0x61000000
T2B84 002:572.540 JLINK_HasError()
T2B84 002:572.547 JLINK_ClrBPEx(BPHandle = 0x00000001)
T2B84 002:572.558 - 0.013ms returns 0x00
T2B84 002:572.566 JLINK_HasError()
T2B84 002:572.573 JLINK_ClrBPEx(BPHandle = 0x00000002)
T2B84 002:572.680 - 0.110ms returns 0x00
T2B84 002:572.688 JLINK_HasError()
T2B84 002:572.696 JLINK_ClrBPEx(BPHandle = 0x00000003)
T2B84 002:572.706 - 0.013ms returns 0x00
T2B84 002:572.713 JLINK_HasError()
T2B84 002:572.720 JLINK_HasError()
T2B84 002:572.727 JLINK_ReadMemU32(0xE000ED30, 0x1 Items)
T2B84 002:572.742   CPU_ReadMem(4 bytes @ 0xE000ED30)
T2B84 002:573.112   Data:  02 00 00 00
T2B84 002:573.124 - 0.399ms returns 1 (0x1)
T2B84 002:573.133 JLINK_ReadMemU32(0xE0001028, 0x1 Items)
T2B84 002:573.147   CPU_ReadMem(4 bytes @ 0xE0001028)
T2B84 002:573.531   Data:  00 00 00 00
T2B84 002:573.548   Debug reg: DWT_FUNC[0]
T2B84 002:573.556 - 0.426ms returns 1 (0x1)
T2B84 002:573.565 JLINK_ReadMemU32(0xE0001038, 0x1 Items)
T2B84 002:573.578   CPU_ReadMem(4 bytes @ 0xE0001038)
T2B84 002:573.946   Data:  00 00 00 00
T2B84 002:573.959   Debug reg: DWT_FUNC[1]
T2B84 002:573.966 - 0.404ms returns 1 (0x1)
T2B84 002:573.996 JLINK_HasError()
T2B84 002:574.004 JLINK_ReadReg(R0)
T2B84 002:574.016 - 0.015ms returns 0x08001971
T2B84 002:574.024 JLINK_ReadReg(R1)
T2B84 002:574.034 - 0.013ms returns 0x200005C8
T2B84 002:574.042 JLINK_ReadReg(R2)
T2B84 002:574.052 - 0.013ms returns 0x00000000
T2B84 002:574.059 JLINK_ReadReg(R3)
T2B84 002:574.070 - 0.013ms returns 0x08001799
T2B84 002:574.077 JLINK_ReadReg(R4)
T2B84 002:574.091 - 0.016ms returns 0x08002254
T2B84 002:574.098 JLINK_ReadReg(R5)
T2B84 002:574.109 - 0.013ms returns 0x00000001
T2B84 002:574.116 JLINK_ReadReg(R6)
T2B84 002:574.126 - 0.013ms returns 0x08002254
T2B84 002:574.133 JLINK_ReadReg(R7)
T2B84 002:574.186 - 0.056ms returns 0xFFFFFFFF
T2B84 002:574.194 JLINK_ReadReg(R8)
T2B84 002:574.205 - 0.013ms returns 0xFFFFFFFF
T2B84 002:574.212 JLINK_ReadReg(R9)
T2B84 002:574.222 - 0.012ms returns 0xFFFFFFFF
T2B84 002:574.229 JLINK_ReadReg(R10)
T2B84 002:574.239 - 0.012ms returns 0xFFFFFFFF
T2B84 002:574.246 JLINK_ReadReg(R11)
T2B84 002:574.256 - 0.012ms returns 0xFFFFFFFF
T2B84 002:574.264 JLINK_ReadReg(R12)
T2B84 002:574.387 - 0.127ms returns 0xFFFFFFFF
T2B84 002:574.396 JLINK_ReadReg(R13 (SP))
T2B84 002:574.407 - 0.013ms returns 0x200005C8
T2B84 002:574.414 JLINK_ReadReg(R14)
T2B84 002:574.424 - 0.012ms returns 0x0800066D
T2B84 002:574.431 JLINK_ReadReg(R15 (PC))
T2B84 002:574.442 - 0.013ms returns 0x08001970
T2B84 002:574.449 JLINK_ReadReg(XPSR)
T2B84 002:574.459 - 0.013ms returns 0x61000000
T2B84 002:574.466 JLINK_ReadReg(MSP)
T2B84 002:574.476 - 0.012ms returns 0x200005C8
T2B84 002:574.483 JLINK_ReadReg(PSP)
T2B84 002:574.494 - 0.013ms returns 0xFFFFFFFC
T2B84 002:574.501 JLINK_ReadReg(CFBP)
T2B84 002:574.511 - 0.013ms returns 0x00000000
T3BE0 002:574.804 JLINK_ReadMemEx(0xE000ED28, 0x4 Bytes, Flags = 0x02000000)
T3BE0 002:574.827   CPU_ReadMem(4 bytes @ 0xE000ED28)
T3BE0 002:575.171   Data:  00 00 00 00
T3BE0 002:575.183 - 0.381ms returns 4 (0x4)
T3BE0 002:576.223 JLINK_HasError()
T3BE0 002:578.636 JLINK_ReadMemEx(0x20000004, 0x2 Bytes, Flags = 0x02000000)
T3BE0 002:578.658   CPU_ReadMem(64 bytes @ 0x20000000)
T3BE0 002:579.519    -- Updating C cache (64 bytes @ 0x20000000)
T3BE0 002:579.531    -- Read from C cache (2 bytes @ 0x20000004)
T3BE0 002:579.539   Data:  00 00
T3BE0 002:579.547 - 0.914ms returns 2 (0x2)
T3BE0 002:586.862 JLINK_ReadMemEx(0x20000003, 0x1 Bytes, Flags = 0x02000000)
T3BE0 002:586.884    -- Read from C cache (1 bytes @ 0x20000003)
T3BE0 002:586.893   Data:  00
T3BE0 002:586.901 - 0.041ms returns 1 (0x1)
T3BE0 002:590.086 JLINK_ReadMemEx(0x08001970, 0x3C Bytes, Flags = 0x02000000)
T3BE0 002:590.110   CPU_ReadMem(128 bytes @ 0x08001940)
T3BE0 002:591.597    -- Updating C cache (128 bytes @ 0x08001940)
T3BE0 002:591.610    -- Read from C cache (60 bytes @ 0x08001970)
T3BE0 002:591.619   Data:  FF F7 F4 FA FF F7 18 FF FF F7 30 FF FF F7 8E FF ...
T3BE0 002:591.627 - 1.543ms returns 60 (0x3C)
T3BE0 002:591.636 JLINK_ReadMemEx(0x08001970, 0x2 Bytes, Flags = 0x02000000)
T3BE0 002:591.643    -- Read from C cache (2 bytes @ 0x08001970)
T3BE0 002:591.651   Data:  FF F7
T3BE0 002:591.659 - 0.026ms returns 2 (0x2)
T3BE0 002:591.667 JLINK_ReadMemEx(0x08001972, 0x2 Bytes, Flags = 0x02000000)
T3BE0 002:591.673    -- Read from C cache (2 bytes @ 0x08001972)
T3BE0 002:591.681   Data:  F4 FA
T3BE0 002:591.689 - 0.025ms returns 2 (0x2)
T3BE0 002:591.705 JLINK_ReadMemEx(0x08001974, 0x3C Bytes, Flags = 0x02000000)
T3BE0 002:591.712    -- Read from C cache (60 bytes @ 0x08001974)
T3BE0 002:591.720   Data:  FF F7 18 FF FF F7 30 FF FF F7 8E FF 00 F0 54 F8 ...
T3BE0 002:591.728 - 0.026ms returns 60 (0x3C)
T3BE0 002:591.735 JLINK_ReadMemEx(0x08001974, 0x2 Bytes, Flags = 0x02000000)
T3BE0 002:591.741    -- Read from C cache (2 bytes @ 0x08001974)
T3BE0 002:591.749   Data:  FF F7
T3BE0 002:591.760 - 0.027ms returns 2 (0x2)
T3BE0 002:591.767 JLINK_ReadMemEx(0x08001976, 0x2 Bytes, Flags = 0x02000000)
T3BE0 002:591.774    -- Read from C cache (2 bytes @ 0x08001976)
T3BE0 002:591.781   Data:  18 FF
T3BE0 002:591.789 - 0.024ms returns 2 (0x2)
T2B84 005:121.731 JLINK_ReadMemEx(0x08001970, 0x2 Bytes, Flags = 0x02000000)
T2B84 005:121.754    -- Read from C cache (2 bytes @ 0x08001970)
T2B84 005:121.763   Data:  FF F7
T2B84 005:121.772 - 0.044ms returns 2 (0x2)
T2B84 005:121.781 JLINK_HasError()
T2B84 005:121.790 JLINK_SetBPEx(Addr = 0x08001980, Type = 0xFFFFFFF2)
T2B84 005:121.804 - 0.017ms returns 0x00000004
T2B84 005:121.812 JLINK_HasError()
T2B84 005:121.819 JLINK_SetBPEx(Addr = 0x0800197C, Type = 0xFFFFFFF2)
T2B84 005:121.829 - 0.013ms returns 0x00000005
T2B84 005:121.837 JLINK_HasError()
T2B84 005:121.843 JLINK_HasError()
T2B84 005:121.851 JLINK_Go()
T2B84 005:122.559   CPU_WriteMem(4 bytes @ 0xE0002000)
T2B84 005:123.133   CPU_WriteMem(4 bytes @ 0xE0002000)
T2B84 005:123.627   CPU_ReadMem(4 bytes @ 0xE0001000)
T2B84 005:124.128   CPU_WriteMem(4 bytes @ 0xE0001000)
T2B84 005:124.142   CPU_WriteMem(4 bytes @ 0xE0002008)
T2B84 005:124.151   CPU_WriteMem(4 bytes @ 0xE000200C)
T2B84 005:124.159   CPU_WriteMem(4 bytes @ 0xE0002010)
T2B84 005:125.927 - 4.082ms
T2B84 005:226.116 JLINK_HasError()
T2B84 005:226.194 JLINK_IsHalted()
T2B84 005:230.282 - 4.132ms returns TRUE
T2B84 005:230.355 JLINK_HasError()
T2B84 005:230.385 JLINK_Halt()
T2B84 005:230.408 - 0.033ms returns 0x00
T2B84 005:230.437 JLINK_IsHalted()
T2B84 005:230.458 - 0.032ms returns TRUE
T2B84 005:230.487 JLINK_IsHalted()
T2B84 005:230.508 - 0.031ms returns TRUE
T2B84 005:230.535 JLINK_IsHalted()
T2B84 005:230.556 - 0.031ms returns TRUE
T2B84 005:230.585 JLINK_HasError()
T2B84 005:230.614 JLINK_ReadReg(R15 (PC))
T2B84 005:230.663 - 0.060ms returns 0x0800197C
T2B84 005:230.692 JLINK_ReadReg(XPSR)
T2B84 005:230.747 - 0.066ms returns 0x01000000
T2B84 005:230.786 JLINK_HasError()
T2B84 005:230.828 JLINK_ClrBPEx(BPHandle = 0x00000004)
T2B84 005:230.878 - 0.068ms returns 0x00
T2B84 005:230.914 JLINK_HasError()
T2B84 005:230.940 JLINK_ClrBPEx(BPHandle = 0x00000005)
T2B84 005:230.981 - 0.051ms returns 0x00
T2B84 005:231.008 JLINK_HasError()
T2B84 005:231.035 JLINK_HasError()
T2B84 005:231.062 JLINK_ReadMemU32(0xE000ED30, 0x1 Items)
T2B84 005:231.117   CPU_ReadMem(4 bytes @ 0xE000ED30)
T2B84 005:231.790   Data:  02 00 00 00
T2B84 005:231.841 - 0.790ms returns 1 (0x1)
T2B84 005:231.878 JLINK_ReadMemU32(0xE0001028, 0x1 Items)
T2B84 005:231.937   CPU_ReadMem(4 bytes @ 0xE0001028)
T2B84 005:232.609   Data:  00 00 00 00
T2B84 005:232.660   Debug reg: DWT_FUNC[0]
T2B84 005:232.691 - 0.824ms returns 1 (0x1)
T2B84 005:232.727 JLINK_ReadMemU32(0xE0001038, 0x1 Items)
T2B84 005:232.785   CPU_ReadMem(4 bytes @ 0xE0001038)
T2B84 005:233.468   Data:  00 00 00 00
T2B84 005:233.519   Debug reg: DWT_FUNC[1]
T2B84 005:233.550 - 0.833ms returns 1 (0x1)
T2B84 005:233.687 JLINK_HasError()
T2B84 005:233.722 JLINK_ReadReg(R0)
T2B84 005:233.777 - 0.066ms returns 0x000003E8
T2B84 005:233.807 JLINK_ReadReg(R1)
T2B84 005:233.848 - 0.052ms returns 0x2000002C
T2B84 005:233.877 JLINK_ReadReg(R2)
T2B84 005:233.918 - 0.051ms returns 0x000003E8
T2B84 005:233.946 JLINK_ReadReg(R3)
T2B84 005:234.389 - 0.456ms returns 0x007A1200
T2B84 005:234.421 JLINK_ReadReg(R4)
T2B84 005:234.631 - 0.222ms returns 0x08002254
T2B84 005:234.662 JLINK_ReadReg(R5)
T2B84 005:234.708 - 0.056ms returns 0x00000001
T2B84 005:234.736 JLINK_ReadReg(R6)
T2B84 005:234.776 - 0.053ms returns 0x08002254
T2B84 005:234.807 JLINK_ReadReg(R7)
T2B84 005:234.846 - 0.050ms returns 0xFFFFFFFF
T2B84 005:235.049 JLINK_ReadReg(R8)
T2B84 005:235.120 - 0.084ms returns 0xFFFFFFFF
T2B84 005:235.154 JLINK_ReadReg(R9)
T2B84 005:235.196 - 0.053ms returns 0xFFFFFFFF
T2B84 005:235.225 JLINK_ReadReg(R10)
T2B84 005:235.265 - 0.051ms returns 0xFFFFFFFF
T2B84 005:235.295 JLINK_ReadReg(R11)
T2B84 005:235.335 - 0.051ms returns 0xFFFFFFFF
T2B84 005:235.363 JLINK_ReadReg(R12)
T2B84 005:235.403 - 0.051ms returns 0xFFFFFFFF
T2B84 005:235.432 JLINK_ReadReg(R13 (SP))
T2B84 005:235.473 - 0.052ms returns 0x200005C8
T2B84 005:235.501 JLINK_ReadReg(R14)
T2B84 005:235.541 - 0.051ms returns 0x080017F1
T2B84 005:235.570 JLINK_ReadReg(R15 (PC))
T2B84 005:235.610 - 0.051ms returns 0x0800197C
T2B84 005:235.638 JLINK_ReadReg(XPSR)
T2B84 005:235.678 - 0.051ms returns 0x01000000
T2B84 005:235.707 JLINK_ReadReg(MSP)
T2B84 005:235.747 - 0.050ms returns 0x200005C8
T2B84 005:235.775 JLINK_ReadReg(PSP)
T2B84 005:235.820 - 0.056ms returns 0xFFFFFFFC
T2B84 005:235.848 JLINK_ReadReg(CFBP)
T2B84 005:236.255 - 0.421ms returns 0x00000000
T3BE0 005:236.608 JLINK_ReadMemEx(0xE000ED28, 0x4 Bytes, Flags = 0x02000000)
T3BE0 005:236.689   CPU_ReadMem(4 bytes @ 0xE000ED28)
T3BE0 005:237.347   Data:  00 00 00 00
T3BE0 005:237.396 - 0.800ms returns 4 (0x4)
T3BE0 005:237.483 JLINK_HasError()
T3BE0 005:246.716 JLINK_ReadMemEx(0x20000004, 0x2 Bytes, Flags = 0x02000000)
T3BE0 005:246.835   CPU_ReadMem(64 bytes @ 0x20000000)
T3BE0 005:248.036    -- Updating C cache (64 bytes @ 0x20000000)
T3BE0 005:248.091    -- Read from C cache (2 bytes @ 0x20000004)
T3BE0 005:248.125   Data:  00 00
T3BE0 005:248.157 - 1.452ms returns 2 (0x2)
T3BE0 005:249.191 JLINK_ReadMemEx(0x20000003, 0x1 Bytes, Flags = 0x02000000)
T3BE0 005:249.271    -- Read from C cache (1 bytes @ 0x20000003)
T3BE0 005:249.302   Data:  00
T3BE0 005:249.333 - 0.153ms returns 1 (0x1)
T3BE0 008:073.761 JLINK_ReadMemEx(0x08001980, 0x3C Bytes, Flags = 0x02000000)
T3BE0 008:073.789   CPU_ReadMem(64 bytes @ 0x08001980)
T3BE0 008:074.713    -- Updating C cache (64 bytes @ 0x08001980)
T3BE0 008:074.728    -- Read from C cache (60 bytes @ 0x08001980)
T3BE0 008:074.738   Data:  00 F0 54 F8 00 F0 DD FA 00 21 23 48 FF F7 46 FB ...
T3BE0 008:074.746 - 0.988ms returns 60 (0x3C)
T3BE0 008:074.755 JLINK_ReadMemEx(0x08001980, 0x2 Bytes, Flags = 0x02000000)
T3BE0 008:074.763    -- Read from C cache (2 bytes @ 0x08001980)
T3BE0 008:074.771   Data:  00 F0
T3BE0 008:074.784 - 0.031ms returns 2 (0x2)
T3BE0 008:074.792 JLINK_ReadMemEx(0x08001982, 0x2 Bytes, Flags = 0x02000000)
T3BE0 008:074.799    -- Read from C cache (2 bytes @ 0x08001982)
T3BE0 008:074.807   Data:  54 F8
T3BE0 008:074.815 - 0.025ms returns 2 (0x2)
T2B84 011:410.903 JLINK_ReadMemEx(0x0800197C, 0x2 Bytes, Flags = 0x02000000)
T2B84 011:410.941   CPU_ReadMem(64 bytes @ 0x08001940)
T2B84 011:411.908    -- Updating C cache (64 bytes @ 0x08001940)
T2B84 011:411.925    -- Read from C cache (2 bytes @ 0x0800197C)
T2B84 011:411.935   Data:  FF F7
T2B84 011:411.945 - 1.044ms returns 2 (0x2)
T2B84 011:411.956 JLINK_HasError()
T2B84 011:411.965 JLINK_SetBPEx(Addr = 0x080019B4, Type = 0xFFFFFFF2)
T2B84 011:411.981 - 0.019ms returns 0x00000006
T2B84 011:411.990 JLINK_HasError()
T2B84 011:411.998 JLINK_HasError()
T2B84 011:412.007 JLINK_Go()
T2B84 011:412.502   CPU_WriteMem(4 bytes @ 0xE0002000)
T2B84 011:413.006   CPU_ReadMem(4 bytes @ 0xE0001000)
T2B84 011:413.464   CPU_WriteMem(4 bytes @ 0xE0001000)
T2B84 011:413.482   CPU_WriteMem(4 bytes @ 0xE0002008)
T2B84 011:413.492   CPU_WriteMem(4 bytes @ 0xE000200C)
T2B84 011:415.136 - 3.137ms
T2B84 011:516.186 JLINK_HasError()
T2B84 011:516.210 JLINK_IsHalted()
T2B84 011:520.624 - 4.430ms returns TRUE
T2B84 011:520.649 JLINK_HasError()
T2B84 011:520.657 JLINK_Halt()
T2B84 011:520.663 - 0.008ms returns 0x00
T2B84 011:520.670 JLINK_IsHalted()
T2B84 011:520.675 - 0.008ms returns TRUE
T2B84 011:520.683 JLINK_IsHalted()
T2B84 011:520.688 - 0.008ms returns TRUE
T2B84 011:520.695 JLINK_IsHalted()
T2B84 011:520.700 - 0.007ms returns TRUE
T2B84 011:520.708 JLINK_HasError()
T2B84 011:520.715 JLINK_ReadReg(R15 (PC))
T2B84 011:520.728 - 0.016ms returns 0x080019B4
T2B84 011:520.735 JLINK_ReadReg(XPSR)
T2B84 011:520.746 - 0.013ms returns 0x21000000
T2B84 011:520.757 JLINK_HasError()
T2B84 011:520.764 JLINK_ClrBPEx(BPHandle = 0x00000006)
T2B84 011:520.775 - 0.013ms returns 0x00
T2B84 011:520.782 JLINK_HasError()
T2B84 011:520.789 JLINK_HasError()
T2B84 011:520.796 JLINK_ReadMemU32(0xE000ED30, 0x1 Items)
T2B84 011:520.911   CPU_ReadMem(4 bytes @ 0xE000ED30)
T2B84 011:521.436   Data:  02 00 00 00
T2B84 011:521.449 - 0.656ms returns 1 (0x1)
T2B84 011:521.459 JLINK_ReadMemU32(0xE0001028, 0x1 Items)
T2B84 011:521.474   CPU_ReadMem(4 bytes @ 0xE0001028)
T2B84 011:521.934   Data:  00 00 00 00
T2B84 011:521.947   Debug reg: DWT_FUNC[0]
T2B84 011:521.955 - 0.498ms returns 1 (0x1)
T2B84 011:521.964 JLINK_ReadMemU32(0xE0001038, 0x1 Items)
T2B84 011:521.979   CPU_ReadMem(4 bytes @ 0xE0001038)
T2B84 011:522.436   Data:  00 00 00 00
T2B84 011:522.450   Debug reg: DWT_FUNC[1]
T2B84 011:522.458 - 0.496ms returns 1 (0x1)
T2B84 011:522.498 JLINK_HasError()
T2B84 011:522.507 JLINK_ReadReg(R0)
T2B84 011:522.519 - 0.015ms returns 0x20000001
T2B84 011:522.527 JLINK_ReadReg(R1)
T2B84 011:522.545 - 0.021ms returns 0x00000001
T2B84 011:522.552 JLINK_ReadReg(R2)
T2B84 011:522.563 - 0.013ms returns 0x00000009
T2B84 011:522.570 JLINK_ReadReg(R3)
T2B84 011:522.627 - 0.060ms returns 0x00000433
T2B84 011:522.635 JLINK_ReadReg(R4)
T2B84 011:522.645 - 0.012ms returns 0x00000000
T2B84 011:522.652 JLINK_ReadReg(R5)
T2B84 011:522.663 - 0.014ms returns 0x00000000
T2B84 011:522.670 JLINK_ReadReg(R6)
T2B84 011:522.680 - 0.012ms returns 0x200000DC
T2B84 011:522.687 JLINK_ReadReg(R7)
T2B84 011:522.697 - 0.012ms returns 0x20000004
T2B84 011:522.704 JLINK_ReadReg(R8)
T2B84 011:522.714 - 0.012ms returns 0xFFFFFFFF
T2B84 011:522.721 JLINK_ReadReg(R9)
T2B84 011:522.731 - 0.012ms returns 0xFFFFFFFF
T2B84 011:522.738 JLINK_ReadReg(R10)
T2B84 011:522.748 - 0.012ms returns 0xFFFFFFFF
T2B84 011:522.755 JLINK_ReadReg(R11)
T2B84 011:522.765 - 0.012ms returns 0xFFFFFFFF
T2B84 011:522.772 JLINK_ReadReg(R12)
T2B84 011:522.781 - 0.012ms returns 0x00000003
T2B84 011:522.788 JLINK_ReadReg(R13 (SP))
T2B84 011:522.798 - 0.012ms returns 0x200005C8
T2B84 011:522.805 JLINK_ReadReg(R14)
T2B84 011:522.893 - 0.090ms returns 0x080019AD
T2B84 011:522.901 JLINK_ReadReg(R15 (PC))
T2B84 011:522.949 - 0.054ms returns 0x080019B4
T2B84 011:522.959 JLINK_ReadReg(XPSR)
T2B84 011:522.970 - 0.012ms returns 0x21000000
T2B84 011:522.977 JLINK_ReadReg(MSP)
T2B84 011:522.986 - 0.012ms returns 0x200005C8
T2B84 011:522.993 JLINK_ReadReg(PSP)
T2B84 011:523.003 - 0.012ms returns 0xFFFFFFFC
T2B84 011:523.010 JLINK_ReadReg(CFBP)
T2B84 011:523.020 - 0.012ms returns 0x00000000
T3BE0 011:523.111 JLINK_ReadMemEx(0xE000ED28, 0x4 Bytes, Flags = 0x02000000)
T3BE0 011:523.131   CPU_ReadMem(4 bytes @ 0xE000ED28)
T3BE0 011:523.555   Data:  00 00 00 00
T3BE0 011:523.566 - 0.458ms returns 4 (0x4)
T3BE0 011:523.611 JLINK_HasError()
T3BE0 011:526.162 JLINK_ReadMemEx(0x20000004, 0x2 Bytes, Flags = 0x02000000)
T3BE0 011:526.188   CPU_ReadMem(64 bytes @ 0x20000000)
T3BE0 011:527.116    -- Updating C cache (64 bytes @ 0x20000000)
T3BE0 011:527.129    -- Read from C cache (2 bytes @ 0x20000004)
T3BE0 011:527.137   Data:  00 00
T3BE0 011:527.145 - 0.986ms returns 2 (0x2)
T3BE0 011:527.364 JLINK_ReadMemEx(0x20000003, 0x1 Bytes, Flags = 0x02000000)
T3BE0 011:527.382    -- Read from C cache (1 bytes @ 0x20000003)
T3BE0 011:527.390   Data:  00
T3BE0 011:527.398 - 0.036ms returns 1 (0x1)
T3BE0 011:529.804 JLINK_ReadMemEx(0x080019B4, 0x3C Bytes, Flags = 0x02000000)
T3BE0 011:529.821   CPU_ReadMem(128 bytes @ 0x08001980)
T3BE0 011:531.205    -- Updating C cache (128 bytes @ 0x08001980)
T3BE0 011:531.219    -- Read from C cache (60 bytes @ 0x080019B4)
T3BE0 011:531.228   Data:  00 F0 5A F8 38 88 C1 07 01 D1 80 07 09 D5 44 20 ...
T3BE0 011:531.236 - 1.434ms returns 60 (0x3C)
T3BE0 011:531.245 JLINK_ReadMemEx(0x080019B4, 0x2 Bytes, Flags = 0x02000000)
T3BE0 011:531.253    -- Read from C cache (2 bytes @ 0x080019B4)
T3BE0 011:531.261   Data:  00 F0
T3BE0 011:531.268 - 0.025ms returns 2 (0x2)
T3BE0 011:531.276 JLINK_ReadMemEx(0x080019B6, 0x2 Bytes, Flags = 0x02000000)
T3BE0 011:531.283    -- Read from C cache (2 bytes @ 0x080019B6)
T3BE0 011:531.290   Data:  5A F8
T3BE0 011:531.298 - 0.024ms returns 2 (0x2)
T2B84 012:075.772 JLINK_ReadMemEx(0x080019B4, 0x2 Bytes, Flags = 0x02000000)
T2B84 012:075.794    -- Read from C cache (2 bytes @ 0x080019B4)
T2B84 012:075.803   Data:  00 F0
T2B84 012:075.812 - 0.042ms returns 2 (0x2)
T2B84 012:075.820 JLINK_HasError()
T2B84 012:075.830 JLINK_Step()
T2B84 012:076.380    -- Read from C cache (2 bytes @ 0x080019B4)
T2B84 012:076.395   CPU_ReadMem(4 bytes @ 0xE000ED18)
T2B84 012:076.916   CPU_WriteMem(4 bytes @ 0xE000ED18)
T2B84 012:077.432   CPU_ReadMem(4 bytes @ 0xE000ED18)
T2B84 012:077.930   CPU_WriteMem(4 bytes @ 0xE000ED18)
T2B84 012:078.416   CPU_ReadMem(4 bytes @ 0xE0001004)
T2B84 012:078.903    -- Read from C cache (2 bytes @ 0x080019B6)
T2B84 012:078.918   -- Simulated
T2B84 012:078.926 - 3.099ms returns 0
T2B84 012:078.937 JLINK_HasError()
T2B84 012:078.945 JLINK_ReadReg(R15 (PC))
T2B84 012:078.995 - 0.052ms returns 0x08001A6C
T2B84 012:079.002 JLINK_ReadReg(XPSR)
T2B84 012:079.012 - 0.012ms returns 0x21000000
T2B84 012:079.023 JLINK_HasError()
T2B84 012:079.030 JLINK_SetBPEx(Addr = 0x080019B4, Type = 0xFFFFFFF2)
T2B84 012:079.041 - 0.014ms returns 0x00000007
T2B84 012:079.048 JLINK_HasError()
T2B84 012:079.055 JLINK_HasError()
T2B84 012:079.062 JLINK_Go()
T2B84 012:079.075   CPU_WriteMem(4 bytes @ 0xE0002000)
T2B84 012:079.522   CPU_ReadMem(4 bytes @ 0xE0001000)
T2B84 012:079.958   CPU_WriteMem(4 bytes @ 0xE0001000)
T2B84 012:080.454   CPU_WriteMem(4 bytes @ 0xE0001004)
T2B84 012:082.099 - 3.044ms
T2B84 012:183.001 JLINK_HasError()
T2B84 012:183.063 JLINK_IsHalted()
T2B84 012:186.886 - 3.897ms returns TRUE
T2B84 012:186.998 JLINK_HasError()
T2B84 012:187.032 JLINK_Halt()
T2B84 012:187.056 - 0.036ms returns 0x00
T2B84 012:187.088 JLINK_IsHalted()
T2B84 012:187.112 - 0.036ms returns TRUE
T2B84 012:187.143 JLINK_IsHalted()
T2B84 012:187.166 - 0.035ms returns TRUE
T2B84 012:187.196 JLINK_IsHalted()
T2B84 012:187.219 - 0.034ms returns TRUE
T2B84 012:187.250 JLINK_HasError()
T2B84 012:187.281 JLINK_ReadReg(R15 (PC))
T2B84 012:187.500 - 0.225ms returns 0x080019B4
T2B84 012:187.512 JLINK_ReadReg(XPSR)
T2B84 012:187.523 - 0.013ms returns 0x21000000
T2B84 012:187.533 JLINK_HasError()
T2B84 012:187.540 JLINK_ClrBPEx(BPHandle = 0x00000007)
T2B84 012:187.551 - 0.013ms returns 0x00
T2B84 012:187.558 JLINK_HasError()
T2B84 012:187.565 JLINK_HasError()
T2B84 012:187.571 JLINK_ReadMemU32(0xE000ED30, 0x1 Items)
T2B84 012:187.586   CPU_ReadMem(4 bytes @ 0xE000ED30)
T2B84 012:188.035   Data:  02 00 00 00
T2B84 012:188.048 - 0.479ms returns 1 (0x1)
T2B84 012:188.057 JLINK_ReadMemU32(0xE0001028, 0x1 Items)
T2B84 012:188.072   CPU_ReadMem(4 bytes @ 0xE0001028)
T2B84 012:188.556   Data:  00 00 00 00
T2B84 012:188.569   Debug reg: DWT_FUNC[0]
T2B84 012:188.577 - 0.522ms returns 1 (0x1)
T2B84 012:188.588 JLINK_ReadMemU32(0xE0001038, 0x1 Items)
T2B84 012:188.648   CPU_ReadMem(4 bytes @ 0xE0001038)
T2B84 012:189.083   Data:  00 00 00 00
T2B84 012:189.095   Debug reg: DWT_FUNC[1]
T2B84 012:189.103 - 0.518ms returns 1 (0x1)
T2B84 012:189.143 JLINK_HasError()
T2B84 012:189.151 JLINK_ReadReg(R0)
T2B84 012:189.164 - 0.015ms returns 0x00000001
T2B84 012:189.171 JLINK_ReadReg(R1)
T2B84 012:189.182 - 0.013ms returns 0x00000080
T2B84 012:189.189 JLINK_ReadReg(R2)
T2B84 012:189.200 - 0.013ms returns 0x00000080
T2B84 012:189.207 JLINK_ReadReg(R3)
T2B84 012:189.220 - 0.016ms returns 0x00000000
T2B84 012:189.228 JLINK_ReadReg(R4)
T2B84 012:189.238 - 0.013ms returns 0x00000000
T2B84 012:189.245 JLINK_ReadReg(R5)
T2B84 012:189.255 - 0.013ms returns 0x00000000
T2B84 012:189.262 JLINK_ReadReg(R6)
T2B84 012:189.273 - 0.012ms returns 0x200000DC
T2B84 012:189.280 JLINK_ReadReg(R7)
T2B84 012:189.290 - 0.013ms returns 0x20000004
T2B84 012:189.297 JLINK_ReadReg(R8)
T2B84 012:189.307 - 0.013ms returns 0xFFFFFFFF
T2B84 012:189.314 JLINK_ReadReg(R9)
T2B84 012:189.325 - 0.013ms returns 0xFFFFFFFF
T2B84 012:189.332 JLINK_ReadReg(R10)
T2B84 012:189.342 - 0.013ms returns 0xFFFFFFFF
T2B84 012:189.349 JLINK_ReadReg(R11)
T2B84 012:189.440 - 0.094ms returns 0xFFFFFFFF
T2B84 012:189.448 JLINK_ReadReg(R12)
T2B84 012:189.459 - 0.013ms returns 0x00000003
T2B84 012:189.466 JLINK_ReadReg(R13 (SP))
T2B84 012:189.476 - 0.013ms returns 0x200005C8
T2B84 012:189.483 JLINK_ReadReg(R14)
T2B84 012:189.494 - 0.013ms returns 0x08001FE3
T2B84 012:189.501 JLINK_ReadReg(R15 (PC))
T2B84 012:189.511 - 0.013ms returns 0x080019B4
T2B84 012:189.518 JLINK_ReadReg(XPSR)
T2B84 012:189.532 - 0.016ms returns 0x21000000
T2B84 012:189.539 JLINK_ReadReg(MSP)
T2B84 012:189.549 - 0.013ms returns 0x200005C8
T2B84 012:189.556 JLINK_ReadReg(PSP)
T2B84 012:189.566 - 0.013ms returns 0xFFFFFFFC
T2B84 012:189.573 JLINK_ReadReg(CFBP)
T2B84 012:189.584 - 0.013ms returns 0x00000000
T3BE0 012:189.672 JLINK_ReadMemEx(0xE000ED28, 0x4 Bytes, Flags = 0x02000000)
T3BE0 012:189.693   CPU_ReadMem(4 bytes @ 0xE000ED28)
T3BE0 012:190.174   Data:  00 00 00 00
T3BE0 012:190.190 - 0.520ms returns 4 (0x4)
T3BE0 012:190.240 JLINK_HasError()
T3BE0 012:192.528 JLINK_ReadMemEx(0x20000004, 0x2 Bytes, Flags = 0x02000000)
T3BE0 012:192.555   CPU_ReadMem(64 bytes @ 0x20000000)
T3BE0 012:193.837    -- Updating C cache (64 bytes @ 0x20000000)
T3BE0 012:193.859    -- Read from C cache (2 bytes @ 0x20000004)
T3BE0 012:193.868   Data:  00 00
T3BE0 012:193.876 - 1.351ms returns 2 (0x2)
T3BE0 012:194.164 JLINK_ReadMemEx(0x20000003, 0x1 Bytes, Flags = 0x02000000)
T3BE0 012:194.181    -- Read from C cache (1 bytes @ 0x20000003)
T3BE0 012:194.190   Data:  00
T3BE0 012:194.198 - 0.036ms returns 1 (0x1)
T2B84 012:429.625 JLINK_ReadMemEx(0x080019B4, 0x2 Bytes, Flags = 0x02000000)
T2B84 012:429.666   CPU_ReadMem(64 bytes @ 0x08001980)
T2B84 012:430.722    -- Updating C cache (64 bytes @ 0x08001980)
T2B84 012:430.747    -- Read from C cache (2 bytes @ 0x080019B4)
T2B84 012:430.765   Data:  00 F0
T2B84 012:430.782 - 1.162ms returns 2 (0x2)
T2B84 012:430.800 JLINK_HasError()
T2B84 012:430.815 JLINK_Step()
T2B84 012:430.841    -- Read from C cache (2 bytes @ 0x080019B4)
T2B84 012:430.858   CPU_ReadMem(4 bytes @ 0xE0001004)
T2B84 012:431.370    -- Read from C cache (2 bytes @ 0x080019B6)
T2B84 012:431.396   -- Simulated
T2B84 012:431.411 - 0.601ms returns 0
T2B84 012:431.429 JLINK_HasError()
T2B84 012:431.444 JLINK_ReadReg(R15 (PC))
T2B84 012:431.468 - 0.029ms returns 0x08001A6C
T2B84 012:431.482 JLINK_ReadReg(XPSR)
T2B84 012:431.502 - 0.025ms returns 0x21000000
T2B84 012:431.520 JLINK_HasError()
T2B84 012:431.534 JLINK_SetBPEx(Addr = 0x080019B4, Type = 0xFFFFFFF2)
T2B84 012:431.555 - 0.027ms returns 0x00000008
T2B84 012:431.569 JLINK_HasError()
T2B84 012:431.582 JLINK_HasError()
T2B84 012:431.595 JLINK_Go()
T2B84 012:431.619   CPU_WriteMem(4 bytes @ 0xE0002000)
T2B84 012:432.148   CPU_ReadMem(4 bytes @ 0xE0001000)
T2B84 012:432.657   CPU_WriteMem(4 bytes @ 0xE0001000)
T2B84 012:433.222   CPU_WriteMem(4 bytes @ 0xE0001004)
T2B84 012:435.047 - 3.467ms
T2B84 012:535.280 JLINK_HasError()
T2B84 012:535.336 JLINK_IsHalted()
T2B84 012:539.298 - 3.997ms returns TRUE
T2B84 012:539.356 JLINK_HasError()
T2B84 012:539.380 JLINK_Halt()
T2B84 012:539.397 - 0.025ms returns 0x00
T2B84 012:539.419 JLINK_IsHalted()
T2B84 012:539.435 - 0.024ms returns TRUE
T2B84 012:539.457 JLINK_IsHalted()
T2B84 012:539.473 - 0.024ms returns TRUE
T2B84 012:539.495 JLINK_IsHalted()
T2B84 012:539.511 - 0.024ms returns TRUE
T2B84 012:539.533 JLINK_HasError()
T2B84 012:539.555 JLINK_ReadReg(R15 (PC))
T2B84 012:539.592 - 0.046ms returns 0x080019B4
T2B84 012:539.615 JLINK_ReadReg(XPSR)
T2B84 012:539.791 - 0.187ms returns 0x61000000
T2B84 012:539.825 JLINK_HasError()
T2B84 012:539.847 JLINK_ClrBPEx(BPHandle = 0x00000008)
T2B84 012:539.879 - 0.040ms returns 0x00
T2B84 012:539.900 JLINK_HasError()
T2B84 012:539.921 JLINK_HasError()
T2B84 012:539.942 JLINK_ReadMemU32(0xE000ED30, 0x1 Items)
T2B84 012:539.991   CPU_ReadMem(4 bytes @ 0xE000ED30)
T2B84 012:540.617   Data:  02 00 00 00
T2B84 012:540.656 - 0.723ms returns 1 (0x1)
T2B84 012:540.685 JLINK_ReadMemU32(0xE0001028, 0x1 Items)
T2B84 012:540.731   CPU_ReadMem(4 bytes @ 0xE0001028)
T2B84 012:541.353   Data:  00 00 00 00
T2B84 012:541.393   Debug reg: DWT_FUNC[0]
T2B84 012:541.417 - 0.740ms returns 1 (0x1)
T2B84 012:541.445 JLINK_ReadMemU32(0xE0001038, 0x1 Items)
T2B84 012:541.490   CPU_ReadMem(4 bytes @ 0xE0001038)
T2B84 012:542.039   Data:  00 00 00 00
T2B84 012:542.079   Debug reg: DWT_FUNC[1]
T2B84 012:542.103 - 0.666ms returns 1 (0x1)
T2B84 012:542.198 JLINK_HasError()
T2B84 012:542.225 JLINK_ReadReg(R0)
T2B84 012:542.263 - 0.047ms returns 0x20000001
T2B84 012:542.286 JLINK_ReadReg(R1)
T2B84 012:542.318 - 0.040ms returns 0x00000000
T2B84 012:542.340 JLINK_ReadReg(R2)
T2B84 012:542.371 - 0.039ms returns 0x80000000
T2B84 012:542.393 JLINK_ReadReg(R3)
T2B84 012:542.424 - 0.039ms returns 0x00000000
T2B84 012:542.445 JLINK_ReadReg(R4)
T2B84 012:542.476 - 0.039ms returns 0x00000000
T2B84 012:542.498 JLINK_ReadReg(R5)
T2B84 012:542.529 - 0.039ms returns 0x00001234
T2B84 012:542.550 JLINK_ReadReg(R6)
T2B84 012:542.581 - 0.039ms returns 0x200000DC
T2B84 012:542.603 JLINK_ReadReg(R7)
T2B84 012:542.643 - 0.049ms returns 0x20000004
T2B84 012:542.666 JLINK_ReadReg(R8)
T2B84 012:542.697 - 0.039ms returns 0xFFFFFFFF
T2B84 012:542.718 JLINK_ReadReg(R9)
T2B84 012:542.984 - 0.276ms returns 0xFFFFFFFF
T2B84 012:543.008 JLINK_ReadReg(R10)
T2B84 012:543.039 - 0.039ms returns 0xFFFFFFFF
T2B84 012:543.061 JLINK_ReadReg(R11)
T2B84 012:543.091 - 0.038ms returns 0xFFFFFFFF
T2B84 012:543.112 JLINK_ReadReg(R12)
T2B84 012:543.143 - 0.039ms returns 0x00000003
T2B84 012:543.164 JLINK_ReadReg(R13 (SP))
T2B84 012:543.195 - 0.039ms returns 0x200005C8
T2B84 012:543.217 JLINK_ReadReg(R14)
T2B84 012:543.247 - 0.038ms returns 0x080019FF
T2B84 012:543.269 JLINK_ReadReg(R15 (PC))
T2B84 012:543.299 - 0.039ms returns 0x080019B4
T2B84 012:543.321 JLINK_ReadReg(XPSR)
T2B84 012:543.352 - 0.039ms returns 0x61000000
T2B84 012:543.373 JLINK_ReadReg(MSP)
T2B84 012:543.404 - 0.039ms returns 0x200005C8
T2B84 012:543.425 JLINK_ReadReg(PSP)
T2B84 012:543.463 - 0.051ms returns 0xFFFFFFFC
T2B84 012:543.490 JLINK_ReadReg(CFBP)
T2B84 012:543.521 - 0.039ms returns 0x00000000
T3BE0 012:543.780 JLINK_ReadMemEx(0xE000ED28, 0x4 Bytes, Flags = 0x02000000)
T3BE0 012:543.843   CPU_ReadMem(4 bytes @ 0xE000ED28)
T3BE0 012:544.436   Data:  00 00 00 00
T3BE0 012:544.471 - 0.700ms returns 4 (0x4)
T3BE0 012:544.577 JLINK_HasError()
T3BE0 012:551.395 JLINK_ReadMemEx(0x20000004, 0x2 Bytes, Flags = 0x02000000)
T3BE0 012:551.468   CPU_ReadMem(64 bytes @ 0x20000000)
T3BE0 012:552.515    -- Updating C cache (64 bytes @ 0x20000000)
T3BE0 012:552.547    -- Read from C cache (2 bytes @ 0x20000004)
T3BE0 012:552.567   Data:  00 00
T3BE0 012:552.586 - 1.197ms returns 2 (0x2)
T3BE0 012:553.143 JLINK_ReadMemEx(0x20000003, 0x1 Bytes, Flags = 0x02000000)
T3BE0 012:553.177    -- Read from C cache (1 bytes @ 0x20000003)
T3BE0 012:553.196   Data:  00
T3BE0 012:553.214 - 0.078ms returns 1 (0x1)
T3BE0 017:368.849 JLINK_ReadMemEx(0x200000DC, 0x2 Bytes, Flags = 0x02000000)
T3BE0 017:368.886   CPU_ReadMem(64 bytes @ 0x200000C0)
T3BE0 017:369.806    -- Updating C cache (64 bytes @ 0x200000C0)
T3BE0 017:369.819    -- Read from C cache (2 bytes @ 0x200000DC)
T3BE0 017:369.827   Data:  34 12
T3BE0 017:369.835 - 0.989ms returns 2 (0x2)
T3BE0 017:369.851 JLINK_ReadMemEx(0x200000DE, 0x2 Bytes, Flags = 0x02000000)
T3BE0 017:369.864    -- Read from C cache (2 bytes @ 0x200000DE)
T3BE0 017:369.872   Data:  00 00
T3BE0 017:369.880 - 0.031ms returns 2 (0x2)
T3BE0 017:369.889 JLINK_ReadMemEx(0x200000E0, 0x2 Bytes, Flags = 0x02000000)
T3BE0 017:369.948    -- Read from C cache (2 bytes @ 0x200000E0)
T3BE0 017:369.956   Data:  00 00
T3BE0 017:369.964 - 0.077ms returns 2 (0x2)
T3BE0 017:369.974 JLINK_ReadMemEx(0x200000E2, 0x2 Bytes, Flags = 0x02000000)
T3BE0 017:369.985    -- Read from C cache (2 bytes @ 0x200000E2)
T3BE0 017:369.992   Data:  00 00
T3BE0 017:370.000 - 0.029ms returns 2 (0x2)
T3BE0 017:370.014 JLINK_ReadMemEx(0x200001A4, 0x2 Bytes, Flags = 0x02000000)
T3BE0 017:370.135   CPU_ReadMem(64 bytes @ 0x20000180)
T3BE0 017:370.993    -- Updating C cache (64 bytes @ 0x20000180)
T3BE0 017:371.007    -- Read from C cache (2 bytes @ 0x200001A4)
T3BE0 017:371.015   Data:  EA 03
T3BE0 017:371.023 - 1.012ms returns 2 (0x2)
T3BE0 017:371.039 JLINK_ReadMemEx(0x200001A6, 0x2 Bytes, Flags = 0x02000000)
T3BE0 017:371.052    -- Read from C cache (2 bytes @ 0x200001A6)
T3BE0 017:371.060   Data:  01 00
T3BE0 017:371.068 - 0.031ms returns 2 (0x2)
T3BE0 017:371.077 JLINK_ReadMemEx(0x200001A8, 0x2 Bytes, Flags = 0x02000000)
T3BE0 017:371.089    -- Read from C cache (2 bytes @ 0x200001A8)
T3BE0 017:371.097   Data:  01 00
T3BE0 017:371.104 - 0.029ms returns 2 (0x2)
T3BE0 017:371.113 JLINK_ReadMemEx(0x200001AA, 0x2 Bytes, Flags = 0x02000000)
T3BE0 017:371.124    -- Read from C cache (2 bytes @ 0x200001AA)
T3BE0 017:371.132   Data:  03 00
T3BE0 017:371.140 - 0.029ms returns 2 (0x2)
T3BE0 017:371.149 JLINK_ReadMemEx(0x200001AC, 0x2 Bytes, Flags = 0x02000000)
T3BE0 017:371.160    -- Read from C cache (2 bytes @ 0x200001AC)
T3BE0 017:371.168   Data:  01 00
T3BE0 017:371.176 - 0.029ms returns 2 (0x2)
T3BE0 017:371.185 JLINK_ReadMemEx(0x200001AE, 0x2 Bytes, Flags = 0x02000000)
T3BE0 017:371.196    -- Read from C cache (2 bytes @ 0x200001AE)
T3BE0 017:371.204   Data:  01 00
T3BE0 017:371.212 - 0.029ms returns 2 (0x2)
T3BE0 017:371.220 JLINK_ReadMemEx(0x200001B0, 0x2 Bytes, Flags = 0x02000000)
T3BE0 017:371.232    -- Read from C cache (2 bytes @ 0x200001B0)
T3BE0 017:371.239   Data:  01 00
T3BE0 017:371.247 - 0.029ms returns 2 (0x2)
T3BE0 017:371.256 JLINK_ReadMemEx(0x200001B2, 0x2 Bytes, Flags = 0x02000000)
T3BE0 017:371.267    -- Read from C cache (2 bytes @ 0x200001B2)
T3BE0 017:371.275   Data:  01 00
T3BE0 017:371.282 - 0.029ms returns 2 (0x2)
T3BE0 017:371.291 JLINK_ReadMemEx(0x200001B4, 0x2 Bytes, Flags = 0x02000000)
T3BE0 017:371.302    -- Read from C cache (2 bytes @ 0x200001B4)
T3BE0 017:371.310   Data:  01 00
T3BE0 017:371.318 - 0.029ms returns 2 (0x2)
T3BE0 017:371.330 JLINK_ReadMemEx(0x200001B6, 0x2 Bytes, Flags = 0x02000000)
T3BE0 017:371.343    -- Read from C cache (2 bytes @ 0x200001B6)
T3BE0 017:371.352   Data:  00 00
T3BE0 017:371.360 - 0.032ms returns 2 (0x2)
T3BE0 017:371.368 JLINK_ReadMemEx(0x200001B8, 0x2 Bytes, Flags = 0x02000000)
T3BE0 017:371.382    -- Read from C cache (2 bytes @ 0x200001B8)
T3BE0 017:371.390   Data:  00 00
T3BE0 017:371.398 - 0.032ms returns 2 (0x2)
T3BE0 017:371.407 JLINK_ReadMemEx(0x200001BA, 0x2 Bytes, Flags = 0x02000000)
T3BE0 017:371.418    -- Read from C cache (2 bytes @ 0x200001BA)
T3BE0 017:371.425   Data:  00 00
T3BE0 017:371.433 - 0.029ms returns 2 (0x2)
T3BE0 017:371.441 JLINK_ReadMemEx(0x200001BC, 0x2 Bytes, Flags = 0x02000000)
T3BE0 017:371.452    -- Read from C cache (2 bytes @ 0x200001BC)
T3BE0 017:371.460   Data:  64 00
T3BE0 017:371.467 - 0.028ms returns 2 (0x2)
T3BE0 017:371.476 JLINK_ReadMemEx(0x200001BE, 0x2 Bytes, Flags = 0x02000000)
T3BE0 017:371.487    -- Read from C cache (2 bytes @ 0x200001BE)
T3BE0 017:371.494   Data:  00 00
T3BE0 017:371.502 - 0.028ms returns 2 (0x2)
T3BE0 017:371.511 JLINK_ReadMemEx(0x200001C0, 0x2 Bytes, Flags = 0x02000000)
T3BE0 017:371.523   CPU_ReadMem(64 bytes @ 0x200001C0)
T3BE0 017:372.529    -- Updating C cache (64 bytes @ 0x200001C0)
T3BE0 017:372.551    -- Read from C cache (2 bytes @ 0x200001C0)
T3BE0 017:372.560   Data:  00 00
T3BE0 017:372.569 - 1.061ms returns 2 (0x2)
T3BE0 017:372.606 JLINK_ReadMemEx(0x200000DC, 0x2 Bytes, Flags = 0x02000000)
T3BE0 017:372.626    -- Read from C cache (2 bytes @ 0x200000DC)
T3BE0 017:372.634   Data:  34 12
T3BE0 017:372.642 - 0.038ms returns 2 (0x2)
T3BE0 017:372.650 JLINK_ReadMemEx(0x200000DE, 0x2 Bytes, Flags = 0x02000000)
T3BE0 017:372.741    -- Read from C cache (2 bytes @ 0x200000DE)
T3BE0 017:372.749   Data:  00 00
